! Mini-Circuits
! S2P DATA File Format
! Type: BAND PASS FILTER
! Model: BFCV-4085+
! All S Parameters are in dB deg format
! TEST CONDITIONS: INPUT POWER = 0 dBm @ Temperature = +25deg C
!
# MHz S DB R 50
!
!Frequency        S11 dB  S11 DEG   S21 dB  S21 DEG   S12 dB  S12 DEG   S22 dB  S22 DEG
  10.0000     -5.240374E-002 -5.110545E-001 -5.422593E+001  8.963953E+001 -5.422230E+001  8.717666E+001 -5.440723E-002 -2.272592E+000
  20.0000     -5.053100E-002 -1.009573E+000 -4.806763E+001  8.589627E+001 -4.810352E+001  8.566859E+001 -5.468905E-002 -4.519684E+000
  40.0000     -5.002743E-002 -2.001555E+000 -4.215999E+001  8.381786E+001 -4.218423E+001  8.377364E+001 -5.768748E-002 -9.003054E+000
  60.0000     -4.782969E-002 -2.984489E+000 -3.867633E+001  8.100708E+001 -3.868520E+001  8.098225E+001 -6.070006E-002 -1.346915E+001
  80.0000     -4.808327E-002 -3.987456E+000 -3.620518E+001  7.835912E+001 -3.622594E+001  7.840600E+001 -6.474424E-002 -1.793975E+001
 100.0000     -4.852765E-002 -4.998509E+000 -3.432010E+001  7.558797E+001 -3.432401E+001  7.562751E+001 -7.018860E-002 -2.239944E+001
 120.0000     -4.869206E-002 -5.997420E+000 -3.277116E+001  7.291538E+001 -3.277689E+001  7.294614E+001 -7.710244E-002 -2.683948E+001
 140.0000     -4.805532E-002 -6.995779E+000 -3.148952E+001  7.020066E+001 -3.148166E+001  7.019793E+001 -8.466060E-002 -3.127033E+001
 160.0000     -4.883176E-002 -8.003118E+000 -3.038234E+001  6.747291E+001 -3.038426E+001  6.748476E+001 -9.273501E-002 -3.567883E+001
 180.0000     -5.004480E-002 -9.009926E+000 -2.942063E+001  6.478459E+001 -2.942350E+001  6.475044E+001 -1.017856E-001 -4.006239E+001
 200.0000     -5.064534E-002 -1.000779E+001 -2.857982E+001  6.205781E+001 -2.858103E+001  6.207233E+001 -1.121669E-001 -4.442057E+001
 220.0000     -5.067746E-002 -1.101255E+001 -2.782548E+001  5.938592E+001 -2.782753E+001  5.938683E+001 -1.244304E-001 -4.874906E+001
 240.0000     -5.199560E-002 -1.201397E+001 -2.715221E+001  5.668330E+001 -2.715350E+001  5.670896E+001 -1.377958E-001 -5.305321E+001
 260.0000     -5.407553E-002 -1.302181E+001 -2.654008E+001  5.401971E+001 -2.654876E+001  5.402316E+001 -1.515428E-001 -5.732563E+001
 280.0000     -5.655797E-002 -1.401921E+001 -2.599342E+001  5.138666E+001 -2.599689E+001  5.141646E+001 -1.659054E-001 -6.156163E+001
 300.0000     -5.698920E-002 -1.501123E+001 -2.549705E+001  4.876964E+001 -2.549999E+001  4.875840E+001 -1.816114E-001 -6.577177E+001
 320.0000     -5.850997E-002 -1.601226E+001 -2.504160E+001  4.615979E+001 -2.504468E+001  4.617863E+001 -1.969397E-001 -6.993784E+001
 340.0000     -6.026428E-002 -1.701053E+001 -2.462606E+001  4.358109E+001 -2.463004E+001  4.358728E+001 -2.134705E-001 -7.407108E+001
 360.0000     -6.296573E-002 -1.801400E+001 -2.424618E+001  4.102340E+001 -2.425092E+001  4.101832E+001 -2.297656E-001 -7.816607E+001
 380.0000     -6.505609E-002 -1.900751E+001 -2.389994E+001  3.847218E+001 -2.390249E+001  3.846186E+001 -2.466045E-001 -8.223071E+001
 400.0000     -6.637634E-002 -1.999919E+001 -2.358013E+001  3.595863E+001 -2.358181E+001  3.596035E+001 -2.645428E-001 -8.627094E+001
 420.0000     -6.897251E-002 -2.100016E+001 -2.328816E+001  3.342935E+001 -2.328945E+001  3.343792E+001 -2.829161E-001 -9.027332E+001
 440.0000     -7.205429E-002 -2.200102E+001 -2.302140E+001  3.095727E+001 -2.302510E+001  3.096551E+001 -3.017431E-001 -9.422617E+001
 460.0000     -7.431173E-002 -2.300087E+001 -2.277501E+001  2.849821E+001 -2.277802E+001  2.849646E+001 -3.192333E-001 -9.814481E+001
 480.0000     -7.626681E-002 -2.399455E+001 -2.255129E+001  2.605297E+001 -2.255364E+001  2.605395E+001 -3.378097E-001 -1.020327E+002
 500.0000     -7.893800E-002 -2.500271E+001 -2.234528E+001  2.362356E+001 -2.234827E+001  2.362719E+001 -3.557192E-001 -1.058846E+002
 520.0000     -8.117070E-002 -2.601684E+001 -2.215631E+001  2.122077E+001 -2.216137E+001  2.123422E+001 -3.723173E-001 -1.097004E+002
 540.0000     -8.425487E-002 -2.702359E+001 -2.198790E+001  1.883966E+001 -2.199105E+001  1.884378E+001 -3.896974E-001 -1.134791E+002
 560.0000     -8.670570E-002 -2.802675E+001 -2.183287E+001  1.648424E+001 -2.183540E+001  1.648665E+001 -4.067568E-001 -1.172203E+002
 580.0000     -8.783470E-002 -2.904038E+001 -2.169206E+001  1.412876E+001 -2.169618E+001  1.412923E+001 -4.242952E-001 -1.209400E+002
 600.0000     -9.093351E-002 -3.005696E+001 -2.156814E+001  1.179065E+001 -2.157034E+001  1.180109E+001 -4.413288E-001 -1.246175E+002
 620.0000     -9.329772E-002 -3.107314E+001 -2.145570E+001  9.484484E+000 -2.145826E+001  9.489581E+000 -4.578001E-001 -1.282728E+002
 640.0000     -9.564108E-002 -3.207954E+001 -2.135666E+001  7.194315E+000 -2.135879E+001  7.198160E+000 -4.739625E-001 -1.318921E+002
 660.0000     -9.778215E-002 -3.309708E+001 -2.126868E+001  4.910111E+000 -2.127071E+001  4.911313E+000 -4.899680E-001 -1.354884E+002
 680.0000     -1.004831E-001 -3.411372E+001 -2.119313E+001  2.646856E+000 -2.119462E+001  2.654483E+000 -5.053988E-001 -1.390609E+002
 700.0000     -1.037289E-001 -3.513811E+001 -2.112758E+001  4.009900E-001 -2.113075E+001  3.958486E-001 -5.203260E-001 -1.426053E+002
 720.0000     -1.058772E-001 -3.615276E+001 -2.107474E+001 -1.829892E+000 -2.107645E+001 -1.834429E+000 -5.345312E-001 -1.461287E+002
 740.0000     -1.084437E-001 -3.717510E+001 -2.103080E+001 -4.061626E+000 -2.103112E+001 -4.056772E+000 -5.488114E-001 -1.496281E+002
 760.0000     -1.112425E-001 -3.820301E+001 -2.099407E+001 -6.289280E+000 -2.099676E+001 -6.274816E+000 -5.621928E-001 -1.531196E+002
 780.0000     -1.145238E-001 -3.923963E+001 -2.097237E+001 -8.498538E+000 -2.097336E+001 -8.484602E+000 -5.757323E-001 -1.565865E+002
 800.0000     -1.176028E-001 -4.026764E+001 -2.095616E+001 -1.068406E+001 -2.095803E+001 -1.067960E+001 -5.880844E-001 -1.600431E+002
 820.0000     -1.201246E-001 -4.129738E+001 -2.095273E+001 -1.307023E+001 -2.095236E+001 -1.307384E+001 -6.064620E-001 -1.634750E+002
 840.0000     -1.214136E-001 -4.233539E+001 -2.096012E+001 -1.506999E+001 -2.096381E+001 -1.506046E+001 -6.130891E-001 -1.668960E+002
 860.0000     -1.239405E-001 -4.337802E+001 -2.097305E+001 -1.723664E+001 -2.097371E+001 -1.723009E+001 -6.242763E-001 -1.703196E+002
 880.0000     -1.259547E-001 -4.441895E+001 -2.099412E+001 -1.942118E+001 -2.099590E+001 -1.941684E+001 -6.354555E-001 -1.737371E+002
 900.0000     -1.291821E-001 -4.545588E+001 -2.102650E+001 -2.159585E+001 -2.102833E+001 -2.158760E+001 -6.459180E-001 -1.771382E+002
 920.0000     -1.318875E-001 -4.649794E+001 -2.106954E+001 -2.375263E+001 -2.107049E+001 -2.374740E+001 -6.561571E-001  1.794559E+002
 940.0000     -1.341998E-001 -4.754544E+001 -2.112005E+001 -2.591298E+001 -2.112087E+001 -2.590876E+001 -6.664557E-001  1.760397E+002
 960.0000     -1.367616E-001 -4.859349E+001 -2.117774E+001 -2.808107E+001 -2.117890E+001 -2.807828E+001 -6.753643E-001  1.726207E+002
 980.0000     -1.391756E-001 -4.963974E+001 -2.124692E+001 -3.025314E+001 -2.124778E+001 -3.026219E+001 -6.851048E-001  1.691972E+002
1000.0000     -1.419932E-001 -5.069188E+001 -2.132800E+001 -3.240405E+001 -2.133024E+001 -3.239959E+001 -6.937023E-001  1.657856E+002
1020.0000     -1.445894E-001 -5.175162E+001 -2.141588E+001 -3.458872E+001 -2.141858E+001 -3.458356E+001 -7.001970E-001  1.623365E+002
1040.0000     -1.469961E-001 -5.280885E+001 -2.151641E+001 -3.675899E+001 -2.151810E+001 -3.675959E+001 -7.084802E-001  1.588780E+002
1060.0000     -1.487035E-001 -5.386829E+001 -2.162553E+001 -3.893533E+001 -2.162607E+001 -3.892707E+001 -7.152607E-001  1.554046E+002
1080.0000     -1.507234E-001 -5.493047E+001 -2.174631E+001 -4.110953E+001 -2.174888E+001 -4.112235E+001 -7.237703E-001  1.519228E+002
1100.0000     -1.522502E-001 -5.600159E+001 -2.187723E+001 -4.332129E+001 -2.187796E+001 -4.332289E+001 -7.316852E-001  1.484112E+002
1120.0000     -1.539608E-001 -5.707801E+001 -2.202191E+001 -4.553799E+001 -2.202549E+001 -4.553673E+001 -7.402953E-001  1.448736E+002
1140.0000     -1.574618E-001 -5.815084E+001 -2.218073E+001 -4.779618E+001 -2.218139E+001 -4.779833E+001 -7.470158E-001  1.412999E+002
1160.0000     -1.594183E-001 -5.922525E+001 -2.236239E+001 -5.004767E+001 -2.236232E+001 -5.004726E+001 -7.541021E-001  1.377144E+002
1180.0000     -1.607911E-001 -6.030621E+001 -2.255122E+001 -5.226620E+001 -2.255389E+001 -5.227512E+001 -7.611680E-001  1.340918E+002
1200.0000     -1.639087E-001 -6.138626E+001 -2.275913E+001 -5.451562E+001 -2.276162E+001 -5.451353E+001 -7.682941E-001  1.304279E+002
1220.0000     -1.652255E-001 -6.247462E+001 -2.298037E+001 -5.677869E+001 -2.298240E+001 -5.678177E+001 -7.751187E-001  1.267134E+002
1240.0000     -1.682192E-001 -6.356139E+001 -2.322396E+001 -5.906792E+001 -2.322560E+001 -5.906409E+001 -7.812386E-001  1.229642E+002
1260.0000     -1.706497E-001 -6.465947E+001 -2.348956E+001 -6.136764E+001 -2.349028E+001 -6.136954E+001 -7.877878E-001  1.191743E+002
1280.0000     -1.721954E-001 -6.575720E+001 -2.377429E+001 -6.365632E+001 -2.377474E+001 -6.364989E+001 -7.950666E-001  1.153348E+002
1300.0000     -1.754228E-001 -6.685967E+001 -2.408356E+001 -6.597912E+001 -2.408471E+001 -6.597694E+001 -8.016328E-001  1.114332E+002
1320.0000     -1.773487E-001 -6.795837E+001 -2.442527E+001 -6.830475E+001 -2.442464E+001 -6.829562E+001 -8.085911E-001  1.074767E+002
1340.0000     -1.795593E-001 -6.906870E+001 -2.478685E+001 -7.061816E+001 -2.478844E+001 -7.060803E+001 -8.154847E-001  1.034691E+002
1360.0000     -1.817118E-001 -7.018067E+001 -2.518648E+001 -7.295755E+001 -2.518638E+001 -7.296030E+001 -8.232078E-001  9.940041E+001
1380.0000     -1.846599E-001 -7.129607E+001 -2.562123E+001 -7.531385E+001 -2.562225E+001 -7.532245E+001 -8.311352E-001  9.525835E+001
1400.0000     -1.872372E-001 -7.241350E+001 -2.609879E+001 -7.766254E+001 -2.609922E+001 -7.766969E+001 -8.391330E-001  9.105692E+001
1420.0000     -1.895538E-001 -7.353880E+001 -2.662325E+001 -8.000813E+001 -2.662335E+001 -8.002328E+001 -8.469471E-001  8.678802E+001
1440.0000     -1.917720E-001 -7.466183E+001 -2.720492E+001 -8.234355E+001 -2.720576E+001 -8.236390E+001 -8.562444E-001  8.244958E+001
1460.0000     -1.944335E-001 -7.579180E+001 -2.784902E+001 -8.465580E+001 -2.785037E+001 -8.465376E+001 -8.650457E-001  7.803507E+001
1480.0000     -1.974586E-001 -7.692485E+001 -2.856487E+001 -8.691148E+001 -2.856742E+001 -8.692143E+001 -8.746486E-001  7.353646E+001
1500.0000     -1.994406E-001 -7.806413E+001 -2.937266E+001 -8.907584E+001 -2.937222E+001 -8.909559E+001 -8.844782E-001  6.897061E+001
1520.0000     -2.031326E-001 -7.922123E+001 -3.027394E+001 -9.121040E+001 -3.027474E+001 -9.123077E+001 -8.941049E-001  6.432152E+001
1540.0000     -2.099146E-001 -8.038374E+001 -3.129251E+001 -9.338120E+001 -3.129634E+001 -9.338805E+001 -9.050724E-001  5.959770E+001
1560.0000     -2.132171E-001 -8.145709E+001 -3.265983E+001 -9.507411E+001 -3.265639E+001 -9.508512E+001 -9.150375E-001  5.481004E+001
1580.0000     -2.139384E-001 -8.263227E+001 -3.408524E+001 -9.589172E+001 -3.408591E+001 -9.587903E+001 -9.243528E-001  4.994099E+001
1600.0000     -2.155505E-001 -8.378951E+001 -3.583843E+001 -9.620618E+001 -3.583765E+001 -9.619800E+001 -9.356411E-001  4.499570E+001
1620.0000     -2.176557E-001 -8.495649E+001 -3.803613E+001 -9.489129E+001 -3.803636E+001 -9.494606E+001 -9.462876E-001  3.997677E+001
1640.0000     -2.212511E-001 -8.612944E+001 -4.092419E+001 -9.028541E+001 -4.092371E+001 -9.026476E+001 -9.561821E-001  3.489663E+001
1660.0000     -2.250352E-001 -8.729921E+001 -4.473705E+001 -7.642154E+001 -4.473821E+001 -7.647640E+001 -9.668559E-001  2.975010E+001
1680.0000     -2.283371E-001 -8.848024E+001 -4.805657E+001 -3.820773E+001 -4.805590E+001 -3.810317E+001 -9.771780E-001  2.454337E+001
1700.0000     -2.330305E-001 -8.966418E+001 -4.561516E+001  5.752101E+000 -4.561672E+001  5.757183E+000 -9.871835E-001  1.928164E+001
1720.0000     -2.370657E-001 -9.084095E+001 -4.168113E+001  2.288020E+001 -4.167374E+001  2.294611E+001 -9.960207E-001  1.397424E+001
1740.0000     -2.414449E-001 -9.204080E+001 -3.862890E+001  2.871478E+001 -3.863088E+001  2.868816E+001 -1.005690E+000  8.634246E+000
1760.0000     -2.448999E-001 -9.324481E+001 -3.632024E+001  3.034654E+001 -3.632008E+001  3.039251E+001 -1.014495E+000  3.252225E+000
1780.0000     -2.495176E-001 -9.444657E+001 -3.449510E+001  3.005679E+001 -3.449141E+001  3.006525E+001 -1.023215E+000 -2.153426E+000
1800.0000     -2.552930E-001 -9.566753E+001 -3.300981E+001  2.871380E+001 -3.300708E+001  2.868921E+001 -1.029588E+000 -7.574384E+000
1820.0000     -2.635231E-001 -9.687296E+001 -3.181261E+001  2.655231E+001 -3.181392E+001  2.657398E+001 -1.036200E+000 -1.299277E+001
1840.0000     -2.665561E-001 -9.808835E+001 -3.079687E+001  2.459556E+001 -3.079746E+001  2.462446E+001 -1.041770E+000 -1.841643E+001
1860.0000     -2.697543E-001 -9.931018E+001 -2.992454E+001  2.228398E+001 -2.992278E+001  2.228282E+001 -1.045658E+000 -2.383360E+001
1880.0000     -2.753175E-001 -1.005510E+002 -2.915110E+001  1.982021E+001 -2.915545E+001  1.979580E+001 -1.048674E+000 -2.923448E+001
1900.0000     -2.808429E-001 -1.017944E+002 -2.849507E+001  1.718923E+001 -2.849684E+001  1.719511E+001 -1.050802E+000 -3.459924E+001
1920.0000     -2.845039E-001 -1.030455E+002 -2.793003E+001  1.458474E+001 -2.793278E+001  1.458142E+001 -1.052327E+000 -3.993223E+001
1940.0000     -2.894909E-001 -1.043050E+002 -2.743003E+001  1.187607E+001 -2.743149E+001  1.188112E+001 -1.053420E+000 -4.523257E+001
1960.0000     -2.935944E-001 -1.055738E+002 -2.700123E+001  9.181770E+000 -2.700416E+001  9.159860E+000 -1.051897E+000 -5.048105E+001
1980.0000     -2.998623E-001 -1.068619E+002 -2.662836E+001  6.383386E+000 -2.663174E+001  6.377729E+000 -1.049681E+000 -5.567552E+001
2000.0000     -3.069607E-001 -1.081629E+002 -2.630780E+001  3.365819E+000 -2.631253E+001  3.345140E+000 -1.048473E+000 -6.081239E+001
2020.0000     -3.097355E-001 -1.094473E+002 -2.608672E+001  7.956378E-001 -2.609076E+001  7.923760E-001 -1.043992E+000 -6.587962E+001
2040.0000     -3.169044E-001 -1.107778E+002 -2.583568E+001 -2.229964E+000 -2.583996E+001 -2.226726E+000 -1.041231E+000 -7.089716E+001
2060.0000     -3.246279E-001 -1.120863E+002 -2.573253E+001 -5.170417E+000 -2.573584E+001 -5.167512E+000 -1.037109E+000 -7.582458E+001
2080.0000     -3.360348E-001 -1.133860E+002 -2.572249E+001 -8.498066E+000 -2.572319E+001 -8.498107E+000 -1.035849E+000 -8.064774E+001
2100.0000     -3.313258E-001 -1.147197E+002 -2.571333E+001 -1.019567E+001 -2.571729E+001 -1.019207E+001 -1.022791E+000 -8.542604E+001
2120.0000     -3.372004E-001 -1.160907E+002 -2.570636E+001 -1.296336E+001 -2.570793E+001 -1.295094E+001 -1.017933E+000 -9.013497E+001
2140.0000     -3.404420E-001 -1.174851E+002 -2.574451E+001 -1.530976E+001 -2.574777E+001 -1.530151E+001 -1.010099E+000 -9.476978E+001
2160.0000     -3.451489E-001 -1.188876E+002 -2.585791E+001 -1.776169E+001 -2.586255E+001 -1.776115E+001 -1.002154E+000 -9.932621E+001
2180.0000     -3.537273E-001 -1.203126E+002 -2.599846E+001 -2.043809E+001 -2.600147E+001 -2.044694E+001 -9.964415E-001 -1.038134E+002
2200.0000     -3.602147E-001 -1.217318E+002 -2.627991E+001 -2.309849E+001 -2.628269E+001 -2.310889E+001 -9.925929E-001 -1.081992E+002
2220.0000     -3.635342E-001 -1.231649E+002 -2.666191E+001 -2.498610E+001 -2.666501E+001 -2.499420E+001 -9.820702E-001 -1.125058E+002
2240.0000     -3.653069E-001 -1.246437E+002 -2.702881E+001 -2.672901E+001 -2.703199E+001 -2.674533E+001 -9.720844E-001 -1.167788E+002
2260.0000     -3.691274E-001 -1.261652E+002 -2.743835E+001 -2.854434E+001 -2.743730E+001 -2.852611E+001 -9.627267E-001 -1.209940E+002
2280.0000     -3.757727E-001 -1.276936E+002 -2.800145E+001 -3.024779E+001 -2.800145E+001 -3.026322E+001 -9.567405E-001 -1.251354E+002
2300.0000     -3.827195E-001 -1.292540E+002 -2.866873E+001 -3.189965E+001 -2.866992E+001 -3.189898E+001 -9.532305E-001 -1.292223E+002
2320.0000     -3.884596E-001 -1.308409E+002 -2.954436E+001 -3.280637E+001 -2.954624E+001 -3.280589E+001 -9.464427E-001 -1.332459E+002
2340.0000     -3.954152E-001 -1.324595E+002 -3.060900E+001 -3.295036E+001 -3.060947E+001 -3.296947E+001 -9.405138E-001 -1.372176E+002
2360.0000     -4.031870E-001 -1.341149E+002 -3.190233E+001 -3.217030E+001 -3.190466E+001 -3.219775E+001 -9.359788E-001 -1.411463E+002
2380.0000     -4.113947E-001 -1.358154E+002 -3.355764E+001 -2.972742E+001 -3.356497E+001 -2.969677E+001 -9.349231E-001 -1.450365E+002
2400.0000     -4.224030E-001 -1.375535E+002 -3.573937E+001 -2.356208E+001 -3.573682E+001 -2.361332E+001 -9.329499E-001 -1.488961E+002
2420.0000     -4.341388E-001 -1.393432E+002 -3.831450E+001 -9.638034E+000 -3.831049E+001 -9.573384E+000 -9.329412E-001 -1.527281E+002
2440.0000     -4.504077E-001 -1.411325E+002 -4.061884E+001  2.316796E+001 -4.061629E+001  2.318321E+001 -9.371423E-001 -1.564772E+002
2460.0000     -4.646206E-001 -1.430422E+002 -3.910901E+001  5.537307E+001 -3.910363E+001  5.534898E+001 -9.453506E-001 -1.603201E+002
2480.0000     -4.744643E-001 -1.448751E+002 -3.459277E+001  7.759718E+001 -3.459975E+001  7.759624E+001 -9.447262E-001 -1.639610E+002
2500.0000     -4.858935E-001 -1.468345E+002 -3.140350E+001  8.372854E+001 -3.140544E+001  8.371970E+001 -9.477555E-001 -1.677099E+002
2520.0000     -5.024403E-001 -1.488870E+002 -2.887974E+001  8.605573E+001 -2.888111E+001  8.605169E+001 -9.563970E-001 -1.714541E+002
2540.0000     -5.211269E-001 -1.510171E+002 -2.676965E+001  8.632949E+001 -2.676994E+001  8.633849E+001 -9.668602E-001 -1.752168E+002
2560.0000     -5.470548E-001 -1.532092E+002 -2.489180E+001  8.613918E+001 -2.489389E+001  8.614409E+001 -9.853284E-001 -1.789797E+002
2580.0000     -5.784597E-001 -1.555166E+002 -2.331389E+001  8.505334E+001 -2.331461E+001  8.505262E+001 -1.009810E+000  1.771760E+002
2600.0000     -6.134144E-001 -1.578125E+002 -2.166755E+001  8.354829E+001 -2.166844E+001  8.353954E+001 -1.036725E+000  1.734383E+002
2620.0000     -6.645942E-001 -1.602176E+002 -2.021462E+001  8.222330E+001 -2.021619E+001  8.222104E+001 -1.080752E+000  1.696366E+002
2640.0000     -6.918924E-001 -1.626797E+002 -1.876581E+001  7.882421E+001 -1.876744E+001  7.882093E+001 -1.100624E+000  1.658247E+002
2660.0000     -7.336429E-001 -1.653547E+002 -1.755144E+001  7.570105E+001 -1.755251E+001  7.569514E+001 -1.139792E+000  1.618430E+002
2680.0000     -7.911333E-001 -1.681468E+002 -1.639476E+001  7.264520E+001 -1.639546E+001  7.263860E+001 -1.192758E+000  1.578164E+002
2700.0000     -8.608021E-001 -1.710562E+002 -1.528602E+001  6.946764E+001 -1.528601E+001  6.946263E+001 -1.258646E+000  1.537129E+002
2720.0000     -9.435779E-001 -1.741228E+002 -1.421790E+001  6.608646E+001 -1.421797E+001  6.607767E+001 -1.337724E+000  1.495273E+002
2740.0000     -1.041719E+000 -1.773114E+002 -1.319497E+001  6.251437E+001 -1.319601E+001  6.250988E+001 -1.433144E+000  1.452402E+002
2760.0000     -1.156149E+000  1.792926E+002 -1.221808E+001  5.874151E+001 -1.221832E+001  5.873569E+001 -1.547004E+000  1.408329E+002
2780.0000     -1.305589E+000  1.757329E+002 -1.127513E+001  5.496788E+001 -1.127498E+001  5.496633E+001 -1.695354E+000  1.363056E+002
2800.0000     -1.480066E+000  1.720814E+002 -1.032445E+001  5.097010E+001 -1.032448E+001  5.096058E+001 -1.868874E+000  1.317354E+002
2820.0000     -1.672720E+000  1.682316E+002 -9.411096E+000  4.649531E+001 -9.410488E+000  4.649235E+001 -2.062808E+000  1.270240E+002
2840.0000     -1.901621E+000  1.641281E+002 -8.553205E+000  4.179762E+001 -8.553084E+000  4.178401E+001 -2.295150E+000  1.221334E+002
2860.0000     -2.182604E+000  1.597973E+002 -7.744081E+000  3.694247E+001 -7.743278E+000  3.693254E+001 -2.580033E+000  1.170725E+002
2880.0000     -2.512196E+000  1.553242E+002 -6.958384E+000  3.183870E+001 -6.957510E+000  3.182866E+001 -2.914733E+000  1.119295E+002
