# GHz S DB R 50
!MicroWave Technology MwT-1F
!12 GHz High Gain GaAs FET
!Vds=6V Ids=0.7
!
!Freq       S11               S21               S12               S22
!GHz    dB      Deg       dB      Deg       dB      Deg       dB      Deg
! 1   -0.765  -29.260   16.302  159.098  -34.610   75.507   -5.350  -12.676
! 2   -1.191  -55.072   15.454  140.658  -29.750   63.008   -5.818  -24.083
! 3   -1.668  -77.151   14.367  125.362  -27.205   53.987   -6.324  -33.072
  4   -2.088  -95.058   13.143  112.629  -26.114   48.036   -6.809  -40.757
  5   -2.467 -110.344   11.981  100.848  -25.314   43.546   -7.148  -48.094
  6   -2.811 -121.971   10.874   92.247  -24.934   41.819   -7.493  -52.529
  7   -2.845 -133.240    9.921   83.617  -24.672   40.685   -7.776  -58.558
  8   -3.089 -142.838    8.995   75.663  -24.589   40.572   -7.830  -64.382
  9   -3.033 -150.491    8.289   67.703  -24.245   41.184   -7.491  -73.571
 10   -3.162 -158.259    7.397   61.030  -24.146   43.162   -7.675  -78.017
 11   -3.038 -164.452    6.665   55.070  -23.777   45.575   -7.655  -85.600
 12   -3.081 -170.917    5.992   48.845  -23.403   48.085   -7.419  -89.771
 13   -2.928 -176.399    5.420   42.890  -22.891   51.213   -7.314  -96.389
 14   -2.927  178.451    4.745   36.546  -22.301   53.205   -6.973 -102.799
 15   -2.761  173.872    4.266   31.743  -21.655   56.242   -6.728 -109.778
 16   -2.818  169.233    3.513   26.361  -20.843   57.375   -6.491 -116.046
 17   -2.759  165.577    2.903   21.544  -20.051   59.400   -6.263 -122.072
 18   -2.633  160.189    2.406   14.921  -19.255   59.630   -5.837 -128.257
 19   -2.576  157.140    1.887   10.801  -18.534   59.326   -5.578 -134.326
 20   -2.458  153.974    1.235    6.572  -17.704   60.255   -5.295 -139.888
 21   -2.342  150.890    0.917    2.297  -16.915   58.203   -4.919 -145.353
 22   -2.252  146.840    0.345   -2.243  -16.111   56.957   -4.568 -150.913
 23   -2.052  143.492   -0.209   -6.853  -15.420   55.814   -4.256 -157.675
 24   -1.925  140.757   -0.634  -11.205  -14.703   54.517   -4.004 -162.512
 25   -1.920  137.444   -1.284  -13.842  -13.944   51.957   -3.527 -167.962
 26   -1.847  134.467   -1.790  -17.131  -13.414   50.073   -3.272 -170.984
