[Version] 2.0
# Hz S RI R 50.0000
[Number of Ports] 2
[Two-Port Order] 12_21
[Number of Frequencies] 100
[Network Data]
10.00000e+03 -50.0000e-06 +500.000e-09 +999.900e-03 -10.0000e-03 +999.900e-03 -10.0000e-03 +50.0000e-06 -500.000e-09
10.97500e+03 -60.2200e-06 +661.000e-09 +999.900e-03 -10.9700e-03 +999.900e-03 -10.9700e-03 +60.2200e-06 -660.900e-09
12.04500e+03 -72.5400e-06 +873.800e-09 +999.900e-03 -12.0500e-03 +999.900e-03 -12.0500e-03 +72.5400e-06 -873.700e-09
13.21940e+03 -87.3700e-06 +1.15500e-06 +999.900e-03 -13.2200e-03 +999.900e-03 -13.2200e-03 +87.3700e-06 -1.15500e-06
14.50830e+03 -105.200e-06 +1.52700e-06 +999.900e-03 -14.5100e-03 +999.900e-03 -14.5100e-03 +105.200e-06 -1.52700e-06
15.92280e+03 -126.800e-06 +2.01900e-06 +999.900e-03 -15.9200e-03 +999.900e-03 -15.9200e-03 +126.800e-06 -2.01800e-06
17.47530e+03 -152.700e-06 +2.66800e-06 +999.800e-03 -17.4800e-03 +999.800e-03 -17.4800e-03 +152.700e-06 -2.66800e-06
19.17910e+03 -183.900e-06 +3.52700e-06 +999.800e-03 -19.1800e-03 +999.800e-03 -19.1800e-03 +183.900e-06 -3.52700e-06
21.04900e+03 -221.500e-06 +4.66300e-06 +999.800e-03 -21.0500e-03 +999.800e-03 -21.0500e-03 +221.500e-06 -4.66300e-06
23.10130e+03 -266.800e-06 +6.16400e-06 +999.700e-03 -23.1000e-03 +999.700e-03 -23.1000e-03 +266.800e-06 -6.16400e-06
25.35360e+03 -321.300e-06 +8.14900e-06 +999.700e-03 -25.3500e-03 +999.700e-03 -25.3500e-03 +321.300e-06 -8.14900e-06
27.82560e+03 -387.000e-06 +10.7700e-06 +999.600e-03 -27.8300e-03 +999.600e-03 -27.8300e-03 +387.000e-06 -10.7700e-06
30.53860e+03 -466.100e-06 +14.2400e-06 +999.500e-03 -30.5400e-03 +999.500e-03 -30.5400e-03 +466.100e-06 -14.2400e-06
33.51600e+03 -561.300e-06 +18.8200e-06 +999.400e-03 -33.5200e-03 +999.400e-03 -33.5200e-03 +561.300e-06 -18.8200e-06
36.78380e+03 -676.100e-06 +24.8900e-06 +999.300e-03 -36.7800e-03 +999.300e-03 -36.7800e-03 +676.100e-06 -24.8900e-06
40.37020e+03 -814.200e-06 +32.9000e-06 +999.200e-03 -40.3700e-03 +999.200e-03 -40.3700e-03 +814.200e-06 -32.9000e-06
44.30620e+03 -980.600e-06 +43.4900e-06 +999.000e-03 -44.3100e-03 +999.000e-03 -44.3100e-03 +980.600e-06 -43.4900e-06
48.62600e+03 -1.18100e-03 +57.4900e-06 +998.800e-03 -48.6300e-03 +998.800e-03 -48.6300e-03 +1.18100e-03 -57.4900e-06
53.36700e+03 -1.42200e-03 +76.0000e-06 +998.600e-03 -53.3700e-03 +998.600e-03 -53.3700e-03 +1.42200e-03 -76.0000e-06
58.57020e+03 -1.71200e-03 +100.500e-06 +998.300e-03 -58.5700e-03 +998.300e-03 -58.5700e-03 +1.71200e-03 -100.500e-06
64.28070e+03 -2.06200e-03 +132.800e-06 +997.900e-03 -64.2800e-03 +997.900e-03 -64.2800e-03 +2.06200e-03 -132.800e-06
70.54800e+03 -2.48200e-03 +175.600e-06 +997.500e-03 -70.5500e-03 +997.500e-03 -70.5500e-03 +2.48200e-03 -175.600e-06
77.42640e+03 -2.98800e-03 +232.100e-06 +997.000e-03 -77.4300e-03 +997.000e-03 -77.4300e-03 +2.98800e-03 -232.100e-06
84.97530e+03 -3.59700e-03 +306.800e-06 +996.400e-03 -84.9700e-03 +996.400e-03 -84.9700e-03 +3.59700e-03 -306.800e-06
93.26030e+03 -4.33000e-03 +405.600e-06 +995.600e-03 -93.2600e-03 +995.600e-03 -93.2600e-03 +4.33000e-03 -405.600e-06
102.3530e+03 -5.21000e-03 +536.100e-06 +994.700e-03 -102.400e-03 +994.700e-03 -102.400e-03 +5.21000e-03 -536.100e-06
112.3320e+03 -6.26900e-03 +708.700e-06 +993.700e-03 -112.300e-03 +993.700e-03 -112.300e-03 +6.26900e-03 -708.700e-06
123.2850e+03 -7.54100e-03 +936.900e-06 +992.300e-03 -123.300e-03 +992.300e-03 -123.300e-03 +7.54100e-03 -936.900e-06
135.3050e+03 -9.06900e-03 +1.23800e-03 +990.800e-03 -135.300e-03 +990.800e-03 -135.300e-03 +9.06900e-03 -1.23800e-03
148.4970e+03 -10.9000e-03 +1.63700e-03 +988.900e-03 -148.500e-03 +988.900e-03 -148.500e-03 +10.9000e-03 -1.63700e-03
162.9750e+03 -13.1000e-03 +2.16400e-03 +986.500e-03 -162.900e-03 +986.500e-03 -162.900e-03 +13.1000e-03 -2.16400e-03
178.8650e+03 -15.7400e-03 +2.86000e-03 +983.800e-03 -178.800e-03 +983.800e-03 -178.800e-03 +15.7400e-03 -2.86000e-03
196.3040e+03 -18.8900e-03 +3.78100e-03 +980.400e-03 -196.200e-03 +980.400e-03 -196.200e-03 +18.8900e-03 -3.78100e-03
215.4440e+03 -22.6600e-03 +4.99700e-03 +976.300e-03 -215.300e-03 +976.300e-03 -215.300e-03 +22.6600e-03 -4.99700e-03
236.4490e+03 -27.1500e-03 +6.60500e-03 +971.300e-03 -236.300e-03 +971.300e-03 -236.300e-03 +27.1500e-03 -6.60500e-03
259.5020e+03 -32.5000e-03 +8.72800e-03 +965.200e-03 -259.200e-03 +965.200e-03 -259.200e-03 +32.5000e-03 -8.72800e-03
284.8040e+03 -38.8500e-03 +11.5300e-03 +957.900e-03 -284.300e-03 +957.900e-03 -284.300e-03 +38.8500e-03 -11.5300e-03
312.5720e+03 -46.3500e-03 +15.2300e-03 +948.900e-03 -311.800e-03 +948.900e-03 -311.800e-03 +46.3500e-03 -15.2300e-03
343.0470e+03 -55.1900e-03 +20.1200e-03 +937.900e-03 -341.900e-03 +937.900e-03 -341.900e-03 +55.1900e-03 -20.1200e-03
376.4940e+03 -65.5200e-03 +26.5500e-03 +924.500e-03 -374.600e-03 +924.500e-03 -374.600e-03 +65.5200e-03 -26.5500e-03
413.2010e+03 -77.5200e-03 +35.0200e-03 +908.000e-03 -410.200e-03 +908.000e-03 -410.200e-03 +77.5200e-03 -35.0200e-03
453.4880e+03 -91.2900e-03 +46.1400e-03 +887.800e-03 -448.700e-03 +887.800e-03 -448.700e-03 +91.2900e-03 -46.1400e-03
497.7020e+03 -106.900e-03 +60.7100e-03 +862.900e-03 -490.200e-03 +862.900e-03 -490.200e-03 +106.900e-03 -60.7100e-03
546.2280e+03 -124.200e-03 +79.7100e-03 +832.300e-03 -534.300e-03 +832.300e-03 -534.300e-03 +124.200e-03 -79.7100e-03
599.4840e+03 -142.800e-03 +104.400e-03 +794.700e-03 -580.700e-03 +794.700e-03 -580.700e-03 +142.800e-03 -104.400e-03
657.9330e+03 -162.000e-03 +136.000e-03 +748.500e-03 -628.500e-03 +748.500e-03 -628.500e-03 +162.000e-03 -136.000e-03
722.0810e+03 -180.500e-03 +176.300e-03 +692.300e-03 -676.100e-03 +692.300e-03 -676.100e-03 +180.500e-03 -176.300e-03
792.4830e+03 -196.100e-03 +226.500e-03 +624.400e-03 -721.400e-03 +624.400e-03 -721.400e-03 +196.100e-03 -226.500e-03
869.7490e+03 -205.700e-03 +287.800e-03 +544.000e-03 -760.900e-03 +544.000e-03 -760.900e-03 +205.700e-03 -287.800e-03
954.5480e+03 -205.400e-03 +360.100e-03 +450.800e-03 -790.500e-03 +450.800e-03 -790.500e-03 +205.400e-03 -360.100e-03
1.047620e+06 -190.300e-03 +441.800e-03 +346.800e-03 -805.200e-03 +346.800e-03 -805.200e-03 +190.300e-03 -441.800e-03
1.149760e+06 -156.000e-03 +528.900e-03 +235.900e-03 -800.200e-03 +235.900e-03 -800.200e-03 +156.000e-03 -528.900e-03
1.261860e+06 -99.3400e-03 +614.900e-03 +124.800e-03 -772.300e-03 +124.800e-03 -772.300e-03 +99.3400e-03 -614.900e-03
1.384890e+06 -20.5000e-03 +691.800e-03 +21.3800e-03 -721.400e-03 +21.3800e-03 -721.400e-03 +20.5000e-03 -691.800e-03
1.519910e+06 +76.7300e-03 +752.100e-03 -66.4300e-03 -651.200e-03 -66.4300e-03 -651.200e-03 -76.7300e-03 -752.100e-03
1.668100e+06 +185.400e-03 +790.600e-03 -133.300e-03 -568.200e-03 -133.300e-03 -568.200e-03 -185.400e-03 -790.600e-03
1.830740e+06 +297.400e-03 +805.600e-03 -177.500e-03 -480.700e-03 -177.500e-03 -480.700e-03 -297.400e-03 -805.600e-03
2.009230e+06 +405.100e-03 +799.200e-03 -200.700e-03 -396.000e-03 -200.700e-03 -396.000e-03 -405.100e-03 -799.200e-03
2.205130e+06 +503.500e-03 +775.700e-03 -207.100e-03 -319.100e-03 -207.100e-03 -319.100e-03 -503.500e-03 -775.700e-03
2.420130e+06 +589.800e-03 +740.100e-03 -201.400e-03 -252.700e-03 -201.400e-03 -252.700e-03 -589.800e-03 -740.100e-03
2.656090e+06 +663.200e-03 +697.000e-03 -188.000e-03 -197.600e-03 -188.000e-03 -197.600e-03 -663.200e-03 -697.000e-03
2.915050e+06 +724.500e-03 +650.100e-03 -170.500e-03 -153.000e-03 -170.500e-03 -153.000e-03 -724.500e-03 -650.100e-03
3.199270e+06 +775.000e-03 +602.200e-03 -151.400e-03 -117.700e-03 -151.400e-03 -117.700e-03 -775.000e-03 -602.200e-03
3.511190e+06 +816.300e-03 +555.000e-03 -132.400e-03 -90.0400e-03 -132.400e-03 -90.0400e-03 -816.300e-03 -555.000e-03
3.853530e+06 +849.900e-03 +509.800e-03 -114.500e-03 -68.6600e-03 -114.500e-03 -68.6600e-03 -849.900e-03 -509.800e-03
4.229240e+06 +877.200e-03 +467.100e-03 -98.0900e-03 -52.2200e-03 -98.0900e-03 -52.2200e-03 -877.200e-03 -467.100e-03
4.641590e+06 +899.400e-03 +427.200e-03 -83.4900e-03 -39.6600e-03 -83.4900e-03 -39.6600e-03 -899.400e-03 -427.200e-03
5.094140e+06 +917.500e-03 +390.300e-03 -70.7100e-03 -30.0800e-03 -70.7100e-03 -30.0800e-03 -917.500e-03 -390.300e-03
5.590810e+06 +932.200e-03 +356.300e-03 -59.6500e-03 -22.8000e-03 -59.6500e-03 -22.8000e-03 -932.200e-03 -356.300e-03
6.135910e+06 +944.200e-03 +325.000e-03 -50.1600e-03 -17.2700e-03 -50.1600e-03 -17.2700e-03 -944.200e-03 -325.000e-03
6.734150e+06 +954.000e-03 +296.400e-03 -42.0800e-03 -13.0700e-03 -42.0800e-03 -13.0700e-03 -954.000e-03 -296.400e-03
7.390720e+06 +962.100e-03 +270.200e-03 -35.2300e-03 -9.89500e-03 -35.2300e-03 -9.89500e-03 -962.100e-03 -270.200e-03
8.111310e+06 +968.700e-03 +246.300e-03 -29.4500e-03 -7.48800e-03 -29.4500e-03 -7.48800e-03 -968.700e-03 -246.300e-03
8.902150e+06 +974.100e-03 +224.500e-03 -24.5800e-03 -5.66600e-03 -24.5800e-03 -5.66600e-03 -974.100e-03 -224.500e-03
9.770100e+06 +978.600e-03 +204.600e-03 -20.5000e-03 -4.28700e-03 -20.5000e-03 -4.28700e-03 -978.600e-03 -204.600e-03
10.72270e+06 +982.300e-03 +186.500e-03 -17.0900e-03 -3.24400e-03 -17.0900e-03 -3.24300e-03 -982.300e-03 -186.500e-03
11.76810e+06 +985.400e-03 +169.900e-03 -14.2300e-03 -2.45400e-03 -14.2300e-03 -2.45400e-03 -985.400e-03 -169.900e-03
12.91550e+06 +987.900e-03 +154.800e-03 -11.8400e-03 -1.85600e-03 -11.8400e-03 -1.85600e-03 -987.900e-03 -154.800e-03
14.17470e+06 +990.000e-03 +141.100e-03 -9.85400e-03 -1.40400e-03 -9.85400e-03 -1.40400e-03 -989.900e-03 -141.100e-03
15.55680e+06 +991.700e-03 +128.600e-03 -8.19500e-03 -1.06200e-03 -8.19500e-03 -1.06200e-03 -991.700e-03 -128.500e-03
17.07350e+06 +993.100e-03 +117.100e-03 -6.81400e-03 -803.700e-06 -6.81400e-03 -803.700e-06 -993.100e-03 -117.100e-03
18.73820e+06 +994.300e-03 +106.700e-03 -5.66300e-03 -607.900e-06 -5.66300e-03 -608.000e-06 -994.300e-03 -106.700e-03
20.56510e+06 +995.300e-03 +97.2500e-03 -4.70700e-03 -459.900e-06 -4.70700e-03 -459.900e-06 -995.300e-03 -97.2500e-03
22.57020e+06 +996.100e-03 +88.6200e-03 -3.91100e-03 -347.900e-06 -3.91100e-03 -347.900e-06 -996.100e-03 -88.6100e-03
24.77080e+06 +996.700e-03 +80.7400e-03 -3.24900e-03 -263.200e-06 -3.24900e-03 -263.200e-06 -996.700e-03 -80.7400e-03
27.18590e+06 +997.300e-03 +73.5700e-03 -2.69900e-03 -199.100e-06 -2.69900e-03 -199.100e-06 -997.300e-03 -73.5700e-03
29.83650e+06 +997.700e-03 +67.0300e-03 -2.24200e-03 -150.600e-06 -2.24200e-03 -150.600e-06 -997.700e-03 -67.0300e-03
32.74550e+06 +998.100e-03 +61.0700e-03 -1.86200e-03 -113.900e-06 -1.86200e-03 -113.900e-06 -998.100e-03 -61.0800e-03
35.93810e+06 +998.400e-03 +55.6400e-03 -1.54600e-03 -86.1700e-06 -1.54600e-03 -86.1700e-06 -998.400e-03 -55.6500e-03
39.44210e+06 +998.700e-03 +50.7000e-03 -1.28400e-03 -65.1900e-06 -1.28400e-03 -65.1800e-06 -998.700e-03 -50.7100e-03
43.28760e+06 +998.900e-03 +46.2000e-03 -1.06600e-03 -49.3200e-06 -1.06600e-03 -49.3100e-06 -998.900e-03 -46.2000e-03
47.50810e+06 +999.100e-03 +42.1000e-03 -885.300e-06 -37.3100e-06 -885.300e-06 -37.3100e-06 -999.100e-03 -42.1000e-03
52.14010e+06 +999.300e-03 +38.3600e-03 -735.100e-06 -28.2200e-06 -735.100e-06 -28.2200e-06 -999.300e-03 -38.3600e-03
57.22370e+06 +999.400e-03 +34.9500e-03 -610.400e-06 -21.3500e-06 -610.400e-06 -21.3500e-06 -999.400e-03 -34.9500e-03
62.80290e+06 +999.500e-03 +31.8400e-03 -506.800e-06 -16.1500e-06 -506.800e-06 -16.1500e-06 -999.500e-03 -31.8500e-03
68.92610e+06 +999.600e-03 +29.0100e-03 -420.800e-06 -12.2200e-06 -420.800e-06 -12.2100e-06 -999.600e-03 -29.0200e-03
75.64630e+06 +999.700e-03 +26.4400e-03 -349.400e-06 -9.23900e-06 -349.400e-06 -9.24100e-06 -999.700e-03 -26.4400e-03
83.02180e+06 +999.700e-03 +24.1000e-03 -290.100e-06 -6.98000e-06 -290.100e-06 -6.99100e-06 -999.700e-03 -24.0900e-03
91.11630e+06 +999.800e-03 +21.9400e-03 -240.800e-06 -5.29000e-06 -240.800e-06 -5.28700e-06 -999.800e-03 -21.9500e-03
100.0000e+06 +999.800e-03 +20.0000e-03 -200.000e-06 -4.00400e-06 -200.000e-06 -4.00000e-06 -999.800e-03 -20.0000e-03
[End]
